Z60W Data File: Version 1.1
Sweep Frequency: Control Voltage
Comment
Freq(Hz)	Ampl(mV)	Bias(V)	Time(Sec)	Z'(Ohm.cm²)	Z''(Ohm.cm²)	GD	Err	Range
End Comments
1.00000E+05	1.00000E+01	6.00000E-01	8.14923E+00	2.07612E+00	1.39245E+00	0.00000E+00	0	0
7.91682E+04	1.00000E+01	6.00000E-01	1.13264E+01	2.01170E+00	1.01332E+00	0.00000E+00	0	0
6.26760E+04	1.00000E+01	6.00000E-01	1.45356E+01	2.01217E+00	8.01929E-01	0.00000E+00	0	0
4.96195E+04	1.00000E+01	6.00000E-01	1.77609E+01	2.05180E+00	6.09498E-01	0.00000E+00	0	0
3.92828E+04	1.00000E+01	6.00000E-01	2.10187E+01	2.02439E+00	4.80136E-01	0.00000E+00	0	0
3.10995E+04	1.00000E+01	6.00000E-01	2.43314E+01	2.02296E+00	3.66117E-01	0.00000E+00	0	0
2.46209E+04	1.00000E+01	6.00000E-01	2.76739E+01	2.04229E+00	2.55628E-01	0.00000E+00	0	0
1.94919E+04	1.00000E+01	6.00000E-01	3.10920E+01	2.03284E+00	2.01994E-01	0.00000E+00	0	0
1.54314E+04	1.00000E+01	6.00000E-01	3.45605E+01	2.05281E+00	1.43142E-01	0.00000E+00	0	0
1.22168E+04	1.00000E+01	6.00000E-01	3.78136E+01	2.06386E+00	9.44862E-02	0.00000E+00	0	0
9.67180E+03	1.00000E+01	6.00000E-01	4.06368E+01	2.07430E+00	5.31221E-02	0.00000E+00	0	0
7.65699E+03	1.00000E+01	6.00000E-01	4.41879E+01	2.08669E+00	2.34603E-02	0.00000E+00	0	0
6.06190E+03	1.00000E+01	6.00000E-01	4.77708E+01	2.10114E+00	2.26315E-03	0.00000E+00	0	0
4.79910E+03	1.00000E+01	6.00000E-01	5.14386E+01	2.11549E+00	-1.43835E-02	0.00000E+00	0	0
3.79936E+03	1.00000E+01	6.00000E-01	5.51638E+01	2.12973E+00	-2.41110E-02	0.00000E+00	0	0
3.00788E+03	1.00000E+01	6.00000E-01	5.89828E+01	2.14268E+00	-2.93387E-02	0.00000E+00	0	0
2.38129E+03	1.00000E+01	6.00000E-01	6.24511E+01	2.14999E+00	-3.23891E-02	0.00000E+00	0	0
1.88522E+03	1.00000E+01	6.00000E-01	6.54851E+01	2.16259E+00	-3.28665E-02	0.00000E+00	0	0
1.49250E+03	1.00000E+01	6.00000E-01	6.86897E+01	2.16968E+00	-3.19075E-02	0.00000E+00	0	0
1.18158E+03	1.00000E+01	6.00000E-01	7.21869E+01	2.17712E+00	-3.12607E-02	0.00000E+00	0	0
9.35437E+02	1.00000E+01	6.00000E-01	7.59616E+01	2.18178E+00	-3.07483E-02	0.00000E+00	0	0
7.40569E+02	1.00000E+01	6.00000E-01	8.08756E+01	2.18633E+00	-2.96581E-02	0.00000E+00	0	0
5.86295E+02	1.00000E+01	6.00000E-01	8.54490E+01	2.19098E+00	-2.89325E-02	0.00000E+00	0	0
4.64159E+02	1.00000E+01	6.00000E-01	9.05397E+01	2.19425E+00	-2.87713E-02	0.00000E+00	0	0
3.67466E+02	1.00000E+01	6.00000E-01	9.45998E+01	2.19763E+00	-2.88066E-02	0.00000E+00	0	0
2.90916E+02	1.00000E+01	6.00000E-01	9.91756E+01	2.20135E+00	-2.94999E-02	0.00000E+00	0	0
2.30313E+02	1.00000E+01	6.00000E-01	1.04250E+02	2.20386E+00	-3.04572E-02	0.00000E+00	0	0
1.82335E+02	1.00000E+01	6.00000E-01	1.13554E+02	2.20756E+00	-3.23805E-02	0.00000E+00	0	0
1.44351E+02	1.00000E+01	6.00000E-01	1.20394E+02	2.21082E+00	-3.51214E-02	0.00000E+00	0	0
1.14280E+02	1.00000E+01	6.00000E-01	1.28457E+02	2.21462E+00	-3.86420E-02	0.00000E+00	0	0
9.04736E+01	1.00000E+01	6.00000E-01	1.31459E+02	2.21786E+00	-4.23176E-02	0.00000E+00	0	0
7.16263E+01	1.00000E+01	6.00000E-01	1.34739E+02	2.22182E+00	-4.69437E-02	0.00000E+00	0	0
5.67053E+01	1.00000E+01	6.00000E-01	1.37630E+02	2.22606E+00	-5.51709E-02	0.00000E+00	0	0
4.48925E+01	1.00000E+01	6.00000E-01	1.40698E+02	2.23102E+00	-6.08843E-02	0.00000E+00	0	0
3.55406E+01	1.00000E+01	6.00000E-01	1.43235E+02	2.23637E+00	-7.12675E-02	0.00000E+00	0	0
2.81369E+01	1.00000E+01	6.00000E-01	1.45931E+02	2.24273E+00	-8.41087E-02	0.00000E+00	0	0
2.22754E+01	1.00000E+01	6.00000E-01	1.48791E+02	2.24898E+00	-9.60527E-02	0.00000E+00	0	0
1.76351E+01	1.00000E+01	6.00000E-01	1.51885E+02	2.25768E+00	-1.13018E-01	0.00000E+00	0	0
1.39614E+01	1.00000E+01	6.00000E-01	1.55304E+02	2.26774E+00	-1.35113E-01	0.00000E+00	0	0
1.10530E+01	1.00000E+01	6.00000E-01	1.59088E+02	2.27898E+00	-1.58788E-01	0.00000E+00	0	0
8.75043E+00	1.00000E+01	6.00000E-01	1.63034E+02	2.29066E+00	-1.83610E-01	0.00000E+00	0	0
6.92755E+00	1.00000E+01	6.00000E-01	1.67237E+02	2.30821E+00	-2.19597E-01	0.00000E+00	0	0
5.48442E+00	1.00000E+01	6.00000E-01	1.71827E+02	2.33103E+00	-2.64739E-01	0.00000E+00	0	0
4.34192E+00	1.00000E+01	6.00000E-01	1.77689E+02	2.36208E+00	-3.20487E-01	0.00000E+00	0	0
3.43742E+00	1.00000E+01	6.00000E-01	1.83967E+02	2.39177E+00	-3.69498E-01	0.00000E+00	0	0
2.72134E+00	1.00000E+01	6.00000E-01	1.91085E+02	2.44340E+00	-4.44494E-01	0.00000E+00	0	0
2.15444E+00	1.00000E+01	6.00000E-01	1.99204E+02	2.50792E+00	-5.24929E-01	0.00000E+00	0	0
1.70563E+00	1.00000E+01	6.00000E-01	2.08485E+02	2.58708E+00	-6.04846E-01	0.00000E+00	0	0
1.35031E+00	1.00000E+01	6.00000E-01	2.19299E+02	2.69188E+00	-6.89602E-01	0.00000E+00	0	0
1.06902E+00	1.00000E+01	6.00000E-01	2.32088E+02	2.83072E+00	-7.72510E-01	0.00000E+00	0	0
8.46323E-01	1.00000E+01	6.00000E-01	2.45439E+02	2.99368E+00	-8.35968E-01	0.00000E+00	0	0
6.70019E-01	1.00000E+01	6.00000E-01	2.61244E+02	3.18160E+00	-8.72563E-01	0.00000E+00	0	0
5.30442E-01	1.00000E+01	6.00000E-01	2.80084E+02	3.36741E+00	-8.72560E-01	0.00000E+00	0	0
4.19941E-01	1.00000E+01	6.00000E-01	2.93406E+02	3.55505E+00	-8.35735E-01	0.00000E+00	0	0
3.32460E-01	1.00000E+01	6.00000E-01	3.09200E+02	3.71870E+00	-7.69060E-01	0.00000E+00	0	0
2.63202E-01	1.00000E+01	6.00000E-01	3.28195E+02	3.85568E+00	-6.87645E-01	0.00000E+00	0	0
2.08373E-01	1.00000E+01	6.00000E-01	3.51207E+02	3.96331E+00	-5.92517E-01	0.00000E+00	0	0
1.64965E-01	1.00000E+01	6.00000E-01	3.79247E+02	4.04334E+00	-4.97703E-01	0.00000E+00	0	0
1.30600E-01	1.00000E+01	6.00000E-01	4.06031E+02	4.16158E+00	-4.18806E-01	0.00000E+00	0	0
1.03393E-01	1.00000E+01	6.00000E-01	4.38867E+02	4.19994E+00	-3.38306E-01	0.00000E+00	0	0
8.18547E-02	1.00000E+01	6.00000E-01	4.79323E+02	4.22486E+00	-2.72197E-01	0.00000E+00	0	0
6.48029E-02	1.00000E+01	6.00000E-01	5.29475E+02	4.24151E+00	-2.13601E-01	0.00000E+00	0	0
5.13033E-02	1.00000E+01	6.00000E-01	5.91803E+02	4.25164E+00	-1.67289E-01	0.00000E+00	0	0
4.06159E-02	1.00000E+01	6.00000E-01	6.21734E+02	4.25639E+00	-1.28970E-01	0.00000E+00	0	0
3.21548E-02	1.00000E+01	6.00000E-01	6.57934E+02	4.25930E+00	-9.70106E-02	0.00000E+00	0	0
2.54564E-02	1.00000E+01	6.00000E-01	7.02289E+02	4.25813E+00	-7.05349E-02	0.00000E+00	0	0
2.01534E-02	1.00000E+01	6.00000E-01	7.57026E+02	4.25775E+00	-4.96767E-02	0.00000E+00	0	0
1.59551E-02	1.00000E+01	6.00000E-01	8.24839E+02	4.25651E+00	-3.31420E-02	0.00000E+00	0	0
1.26313E-02	1.00000E+01	6.00000E-01	9.09135E+02	4.25623E+00	-1.81831E-02	0.00000E+00	0	0
1.00000E-02	1.00000E+01	6.00000E-01	1.01428E+03	4.25689E+00	-7.52599E-03	0.00000E+00	0	0
